!
! S-parameters of pins 1 and 3 of a Coilcraft JA4220-AL wideband RF
! transformer from 1GHz to 8GHz with pins 2 and 4 terminated with 50
! ohm loads to ground.
!
# Hz S RI R 50.0000
1.009274e+09 +247.319e-03 -117.309e-03 -88.4434e-03 +453.978e-03 -86.8263e-03 +454.010e-03 +306.084e-03 -84.5333e-03
1.024105e+09 +244.993e-03 -117.303e-03 -79.5295e-03 +455.608e-03 -78.4153e-03 +454.644e-03 +302.060e-03 -84.0435e-03
1.038935e+09 +241.260e-03 -117.964e-03 -70.4127e-03 +455.257e-03 -69.3919e-03 +455.249e-03 +302.897e-03 -83.4816e-03
1.053766e+09 +237.722e-03 -118.799e-03 -60.8116e-03 +457.032e-03 -59.4566e-03 +456.263e-03 +297.808e-03 -84.0734e-03
1.068597e+09 +231.185e-03 -118.074e-03 -51.5734e-03 +458.303e-03 -51.7012e-03 +458.311e-03 +293.181e-03 -81.5655e-03
1.083427e+09 +228.592e-03 -117.741e-03 -42.9608e-03 +458.502e-03 -45.0495e-03 +456.787e-03 +290.768e-03 -84.0171e-03
1.098258e+09 +224.817e-03 -118.033e-03 -33.8344e-03 +458.525e-03 -34.1623e-03 +458.811e-03 +287.922e-03 -80.8233e-03
1.113089e+09 +221.062e-03 -117.299e-03 -26.3673e-03 +458.245e-03 -26.8250e-03 +456.802e-03 +285.303e-03 -82.4597e-03
1.127919e+09 +215.316e-03 -115.143e-03 -16.0323e-03 +458.964e-03 -17.5007e-03 +457.218e-03 +281.734e-03 -82.6627e-03
1.142750e+09 +212.203e-03 -115.021e-03 -8.81148e-03 +459.025e-03 -7.50783e-03 +457.165e-03 +280.519e-03 -79.5145e-03
1.157580e+09 +209.055e-03 -113.020e-03 +818.444e-06 +458.077e-03 +2.33067e-03 +457.207e-03 +277.098e-03 -78.0460e-03
1.172411e+09 +205.562e-03 -111.694e-03 +9.28137e-03 +455.887e-03 +9.98945e-03 +456.845e-03 +272.707e-03 -75.3995e-03
1.187242e+09 +201.549e-03 -107.662e-03 +17.7924e-03 +455.952e-03 +17.9965e-03 +454.366e-03 +270.594e-03 -78.2193e-03
1.202072e+09 +197.685e-03 -107.033e-03 +25.5795e-03 +454.222e-03 +26.5865e-03 +453.004e-03 +265.849e-03 -74.9361e-03
1.216903e+09 +195.754e-03 -104.944e-03 +34.7351e-03 +451.320e-03 +33.1033e-03 +451.876e-03 +261.656e-03 -75.1485e-03
1.234291e+09 +191.794e-03 -101.502e-03 +43.1753e-03 +450.363e-03 +42.6332e-03 +450.233e-03 +257.715e-03 -72.6875e-03
1.254845e+09 +186.280e-03 -97.2859e-03 +55.9279e-03 +447.348e-03 +54.9988e-03 +446.603e-03 +253.921e-03 -69.2573e-03
1.275398e+09 +184.170e-03 -93.6478e-03 +65.0763e-03 +443.737e-03 +65.9910e-03 +442.063e-03 +250.334e-03 -66.0934e-03
1.295951e+09 +180.978e-03 -89.6528e-03 +75.6605e-03 +439.888e-03 +75.8665e-03 +440.093e-03 +243.286e-03 -63.1359e-03
1.316504e+09 +177.574e-03 -84.4241e-03 +86.0979e-03 +435.950e-03 +85.0051e-03 +434.640e-03 +238.504e-03 -59.1577e-03
1.337058e+09 +171.158e-03 -79.8390e-03 +94.3083e-03 +432.144e-03 +94.6054e-03 +430.868e-03 +232.672e-03 -56.5403e-03
1.357611e+09 +169.021e-03 -72.9181e-03 +102.777e-03 +426.999e-03 +104.226e-03 +428.075e-03 +228.767e-03 -49.5819e-03
1.378164e+09 +164.998e-03 -66.6377e-03 +112.788e-03 +422.635e-03 +112.173e-03 +422.863e-03 +223.180e-03 -45.2055e-03
1.398717e+09 +162.029e-03 -59.6360e-03 +119.145e-03 +419.885e-03 +119.778e-03 +418.409e-03 +219.150e-03 -38.2070e-03
1.419271e+09 +157.013e-03 -52.8920e-03 +127.927e-03 +415.567e-03 +126.633e-03 +415.584e-03 +212.322e-03 -31.5046e-03
1.439824e+09 +155.141e-03 -43.9566e-03 +137.193e-03 +412.355e-03 +135.405e-03 +412.875e-03 +209.395e-03 -23.4554e-03
1.460377e+09 +154.337e-03 -35.0886e-03 +142.345e-03 +407.782e-03 +142.923e-03 +407.098e-03 +207.784e-03 -12.8228e-03
1.480930e+09 +150.157e-03 -24.6301e-03 +149.772e-03 +405.404e-03 +151.079e-03 +405.342e-03 +203.996e-03 -7.99473e-03
1.501484e+09 +151.017e-03 -14.3711e-03 +159.233e-03 +400.781e-03 +158.960e-03 +400.518e-03 +201.242e-03 +2.48392e-03
1.522037e+09 +150.163e-03 -4.85569e-03 +167.108e-03 +397.217e-03 +168.503e-03 +396.420e-03 +202.999e-03 +10.9466e-03
1.542590e+09 +151.494e-03 +8.32752e-03 +176.395e-03 +392.319e-03 +177.072e-03 +393.293e-03 +199.751e-03 +19.6645e-03
1.563143e+09 +150.581e-03 +17.4473e-03 +183.632e-03 +388.206e-03 +183.003e-03 +389.007e-03 +199.951e-03 +25.2719e-03
1.583696e+09 +155.405e-03 +28.4638e-03 +192.363e-03 +382.637e-03 +193.605e-03 +383.130e-03 +201.452e-03 +36.3609e-03
1.604250e+09 +156.358e-03 +40.4417e-03 +200.460e-03 +376.600e-03 +200.083e-03 +377.454e-03 +199.199e-03 +42.3788e-03
1.624803e+09 +159.022e-03 +51.9143e-03 +207.035e-03 +371.365e-03 +208.692e-03 +371.122e-03 +201.454e-03 +50.5694e-03
1.645356e+09 +161.818e-03 +61.3393e-03 +214.354e-03 +365.773e-03 +214.925e-03 +365.079e-03 +202.004e-03 +58.5286e-03
1.665909e+09 +163.988e-03 +74.0186e-03 +222.411e-03 +358.945e-03 +222.198e-03 +355.472e-03 +205.960e-03 +66.6098e-03
1.686463e+09 +168.542e-03 +86.2295e-03 +229.262e-03 +350.628e-03 +230.251e-03 +350.763e-03 +205.271e-03 +77.9119e-03
1.710561e+09 +173.322e-03 +97.5727e-03 +236.795e-03 +343.291e-03 +236.479e-03 +343.308e-03 +207.001e-03 +84.1658e-03
1.738833e+09 +178.100e-03 +112.867e-03 +243.940e-03 +333.160e-03 +243.592e-03 +332.988e-03 +207.832e-03 +94.5574e-03
1.767106e+09 +185.634e-03 +128.219e-03 +251.778e-03 +324.193e-03 +250.195e-03 +323.042e-03 +210.085e-03 +109.656e-03
1.795378e+09 +191.257e-03 +142.163e-03 +257.964e-03 +313.025e-03 +256.089e-03 +312.553e-03 +212.638e-03 +117.677e-03
1.823651e+09 +199.162e-03 +155.175e-03 +262.061e-03 +303.197e-03 +262.524e-03 +303.814e-03 +216.004e-03 +130.970e-03
1.851923e+09 +205.980e-03 +169.238e-03 +266.866e-03 +292.851e-03 +267.546e-03 +292.109e-03 +221.171e-03 +143.336e-03
1.880196e+09 +212.046e-03 +185.642e-03 +272.284e-03 +282.007e-03 +271.966e-03 +282.249e-03 +224.652e-03 +153.621e-03
1.908468e+09 +219.582e-03 +197.632e-03 +275.266e-03 +273.324e-03 +274.915e-03 +272.596e-03 +228.803e-03 +166.650e-03
1.936741e+09 +228.966e-03 +212.574e-03 +278.027e-03 +262.758e-03 +277.276e-03 +263.023e-03 +232.934e-03 +175.029e-03
1.965013e+09 +233.983e-03 +225.683e-03 +280.748e-03 +254.168e-03 +280.580e-03 +252.828e-03 +238.979e-03 +188.742e-03
1.993285e+09 +243.113e-03 +238.829e-03 +282.972e-03 +243.906e-03 +281.687e-03 +244.240e-03 +245.241e-03 +199.454e-03
2.021558e+09 +250.539e-03 +250.625e-03 +283.691e-03 +235.110e-03 +283.513e-03 +234.383e-03 +251.243e-03 +209.343e-03
2.049830e+09 +260.317e-03 +261.966e-03 +282.749e-03 +225.793e-03 +283.548e-03 +227.187e-03 +257.323e-03 +220.889e-03
2.078103e+09 +268.802e-03 +270.203e-03 +285.226e-03 +218.301e-03 +283.779e-03 +218.209e-03 +264.314e-03 +228.600e-03
2.106375e+09 +277.336e-03 +282.246e-03 +283.603e-03 +210.120e-03 +282.403e-03 +211.419e-03 +269.161e-03 +236.557e-03
2.134648e+09 +285.545e-03 +293.787e-03 +283.595e-03 +202.682e-03 +283.767e-03 +202.823e-03 +276.894e-03 +251.128e-03
2.162920e+09 +290.188e-03 +301.119e-03 +282.755e-03 +196.946e-03 +281.442e-03 +196.660e-03 +282.528e-03 +256.846e-03
2.191193e+09 +296.788e-03 +310.231e-03 +281.465e-03 +190.860e-03 +282.863e-03 +190.813e-03 +289.677e-03 +265.076e-03
2.219465e+09 +304.102e-03 +317.816e-03 +280.767e-03 +184.308e-03 +280.681e-03 +183.621e-03 +298.952e-03 +272.770e-03
2.247738e+09 +312.215e-03 +327.755e-03 +279.675e-03 +178.161e-03 +279.371e-03 +177.198e-03 +305.081e-03 +280.274e-03
2.276010e+09 +319.035e-03 +335.958e-03 +278.557e-03 +172.796e-03 +278.323e-03 +173.500e-03 +311.664e-03 +286.111e-03
2.304283e+09 +322.857e-03 +341.799e-03 +275.667e-03 +167.728e-03 +276.810e-03 +167.427e-03 +317.967e-03 +293.478e-03
2.337209e+09 +329.313e-03 +348.208e-03 +275.924e-03 +162.411e-03 +273.297e-03 +162.959e-03 +322.565e-03 +300.079e-03
2.376128e+09 +339.610e-03 +355.341e-03 +273.504e-03 +157.748e-03 +273.778e-03 +156.966e-03 +332.870e-03 +306.966e-03
2.415047e+09 +344.203e-03 +362.961e-03 +271.836e-03 +152.746e-03 +270.436e-03 +152.147e-03 +342.476e-03 +312.028e-03
2.453965e+09 +352.981e-03 +368.549e-03 +270.640e-03 +149.325e-03 +268.470e-03 +148.639e-03 +350.265e-03 +315.688e-03
2.492884e+09 +356.546e-03 +372.017e-03 +267.474e-03 +144.786e-03 +266.766e-03 +145.018e-03 +357.417e-03 +319.459e-03
2.531803e+09 +363.288e-03 +374.599e-03 +266.593e-03 +141.952e-03 +265.267e-03 +141.328e-03 +367.439e-03 +321.093e-03
2.570722e+09 +372.745e-03 +380.146e-03 +265.101e-03 +136.669e-03 +264.203e-03 +139.194e-03 +371.573e-03 +325.615e-03
2.609641e+09 +377.667e-03 +381.097e-03 +265.384e-03 +135.845e-03 +264.990e-03 +136.770e-03 +375.208e-03 +323.984e-03
2.648560e+09 +377.560e-03 +385.302e-03 +265.959e-03 +132.904e-03 +264.458e-03 +134.792e-03 +380.824e-03 +325.602e-03
2.687479e+09 +382.437e-03 +378.689e-03 +266.118e-03 +132.722e-03 +263.349e-03 +131.861e-03 +390.377e-03 +327.459e-03
2.726397e+09 +391.153e-03 +382.001e-03 +265.851e-03 +130.585e-03 +266.150e-03 +131.316e-03 +391.739e-03 +326.991e-03
2.765316e+09 +395.449e-03 +378.273e-03 +266.387e-03 +128.893e-03 +265.211e-03 +129.589e-03 +395.091e-03 +327.154e-03
2.804235e+09 +400.598e-03 +375.106e-03 +268.520e-03 +127.710e-03 +267.802e-03 +129.304e-03 +401.516e-03 +323.888e-03
2.843154e+09 +403.580e-03 +373.837e-03 +269.608e-03 +126.823e-03 +271.031e-03 +128.239e-03 +402.525e-03 +323.773e-03
2.882073e+09 +412.071e-03 +369.691e-03 +272.445e-03 +125.467e-03 +272.397e-03 +125.339e-03 +409.230e-03 +324.493e-03
2.920992e+09 +416.079e-03 +365.570e-03 +276.933e-03 +124.627e-03 +275.678e-03 +123.762e-03 +410.051e-03 +314.080e-03
2.959911e+09 +420.167e-03 +359.721e-03 +277.917e-03 +123.096e-03 +277.589e-03 +121.968e-03 +418.148e-03 +312.407e-03
2.998829e+09 +422.700e-03 +355.059e-03 +283.246e-03 +120.514e-03 +280.604e-03 +121.276e-03 +422.057e-03 +306.550e-03
3.037748e+09 +428.366e-03 +345.523e-03 +286.628e-03 +118.242e-03 +284.367e-03 +116.820e-03 +424.900e-03 +303.970e-03
3.076667e+09 +432.842e-03 +339.406e-03 +291.003e-03 +116.395e-03 +288.972e-03 +115.791e-03 +425.247e-03 +299.474e-03
3.115586e+09 +440.305e-03 +336.347e-03 +294.631e-03 +112.326e-03 +294.328e-03 +113.781e-03 +428.550e-03 +291.080e-03
3.154505e+09 +444.362e-03 +326.225e-03 +297.879e-03 +110.345e-03 +298.732e-03 +108.874e-03 +434.830e-03 +289.245e-03
3.193424e+09 +448.585e-03 +314.130e-03 +302.887e-03 +107.584e-03 +302.585e-03 +106.827e-03 +438.362e-03 +278.426e-03
3.239055e+09 +455.440e-03 +312.045e-03 +311.008e-03 +101.666e-03 +308.004e-03 +102.308e-03 +443.415e-03 +273.416e-03
3.292991e+09 +462.854e-03 +300.199e-03 +316.939e-03 +97.3963e-03 +315.420e-03 +96.1862e-03 +448.098e-03 +262.488e-03
3.346927e+09 +472.422e-03 +285.171e-03 +323.562e-03 +88.4815e-03 +322.016e-03 +87.9243e-03 +454.542e-03 +251.310e-03
3.400864e+09 +482.020e-03 +273.194e-03 +329.709e-03 +80.2302e-03 +328.398e-03 +81.1855e-03 +459.997e-03 +240.986e-03
3.454800e+09 +487.330e-03 +262.579e-03 +334.611e-03 +72.5953e-03 +333.760e-03 +71.8485e-03 +466.470e-03 +229.675e-03
3.508736e+09 +497.738e-03 +245.748e-03 +340.877e-03 +59.6663e-03 +338.981e-03 +61.6107e-03 +473.630e-03 +213.909e-03
3.562673e+09 +506.753e-03 +232.376e-03 +346.914e-03 +51.1411e-03 +344.877e-03 +51.8273e-03 +476.593e-03 +202.565e-03
3.616609e+09 +513.941e-03 +220.311e-03 +351.107e-03 +41.2269e-03 +351.179e-03 +39.5180e-03 +486.066e-03 +191.312e-03
3.670545e+09 +521.162e-03 +202.919e-03 +353.959e-03 +25.6395e-03 +353.803e-03 +26.6894e-03 +491.872e-03 +180.650e-03
3.724481e+09 +524.047e-03 +189.461e-03 +359.359e-03 +15.6053e-03 +361.235e-03 +15.7161e-03 +495.697e-03 +164.451e-03
3.778418e+09 +532.915e-03 +177.299e-03 +360.248e-03 +3.32622e-03 +360.890e-03 +2.66166e-03 +503.099e-03 +152.225e-03
3.832354e+09 +537.420e-03 +161.996e-03 +363.608e-03 -10.5871e-03 +365.340e-03 -7.53065e-03 +508.309e-03 +134.730e-03
3.886290e+09 +545.421e-03 +144.826e-03 +367.009e-03 -20.7624e-03 +366.605e-03 -24.6296e-03 +513.719e-03 +119.766e-03
3.940226e+09 +546.443e-03 +130.810e-03 +366.350e-03 -37.7504e-03 +364.849e-03 -32.1425e-03 +516.974e-03 +106.453e-03
3.994163e+09 +546.024e-03 +112.625e-03 +365.996e-03 -48.8351e-03 +366.437e-03 -51.1740e-03 +517.770e-03 +90.7147e-03
4.048099e+09 +546.188e-03 +95.0106e-03 +364.068e-03 -66.3106e-03 +363.181e-03 -63.8093e-03 +520.247e-03 +76.5513e-03
4.102035e+09 +546.401e-03 +83.9077e-03 +361.857e-03 -75.4669e-03 +359.725e-03 -77.8783e-03 +518.199e-03 +65.0602e-03
4.155971e+09 +541.901e-03 +63.9448e-03 +362.335e-03 -89.9623e-03 +361.134e-03 -92.8126e-03 +517.920e-03 +49.2930e-03
4.209908e+09 +535.447e-03 +45.8893e-03 +355.206e-03 -105.846e-03 +356.335e-03 -106.535e-03 +513.766e-03 +35.5552e-03
4.263844e+09 +528.781e-03 +29.2475e-03 +353.573e-03 -120.937e-03 +352.425e-03 -119.897e-03 +511.402e-03 +22.8581e-03
4.317780e+09 +520.142e-03 +14.2029e-03 +346.755e-03 -136.576e-03 +347.393e-03 -133.315e-03 +505.376e-03 +5.84058e-03
4.371717e+09 +512.368e-03 -4.87397e-03 +340.254e-03 -149.409e-03 +341.115e-03 -150.184e-03 +498.374e-03 -5.34250e-03
4.425653e+09 +503.650e-03 -19.4988e-03 +334.032e-03 -166.999e-03 +335.414e-03 -168.793e-03 +483.517e-03 -15.6201e-03
4.488892e+09 +488.857e-03 -37.0770e-03 +323.412e-03 -183.314e-03 +326.327e-03 -184.855e-03 +471.903e-03 -32.1168e-03
4.563640e+09 +468.842e-03 -53.7725e-03 +308.237e-03 -205.750e-03 +309.802e-03 -206.303e-03 +458.863e-03 -45.9058e-03
4.638388e+09 +441.779e-03 -69.0705e-03 +289.176e-03 -226.861e-03 +289.276e-03 -225.861e-03 +439.892e-03 -53.2100e-03
4.713137e+09 +413.151e-03 -88.0127e-03 +266.270e-03 -245.330e-03 +266.000e-03 -244.532e-03 +412.034e-03 -60.8865e-03
4.787885e+09 +386.381e-03 -100.342e-03 +240.202e-03 -259.857e-03 +239.297e-03 -261.170e-03 +382.498e-03 -63.2074e-03
4.862633e+09 +354.799e-03 -102.817e-03 +210.819e-03 -271.431e-03 +209.589e-03 -270.435e-03 +354.403e-03 -57.5771e-03
4.937382e+09 +328.326e-03 -103.237e-03 +176.208e-03 -276.446e-03 +177.647e-03 -277.659e-03 +325.013e-03 -49.8255e-03
5.012130e+09 +302.505e-03 -94.1353e-03 +144.572e-03 -276.034e-03 +144.262e-03 -278.722e-03 +298.315e-03 -33.2083e-03
5.086878e+09 +277.825e-03 -74.2017e-03 +113.834e-03 -271.844e-03 +113.581e-03 -271.488e-03 +269.772e-03 -9.62797e-03
5.161627e+09 +260.318e-03 -55.0329e-03 +84.9997e-03 -259.525e-03 +85.8102e-03 -260.837e-03 +250.206e-03 +23.8622e-03
5.236375e+09 +253.032e-03 -22.0157e-03 +60.6880e-03 -245.728e-03 +60.0468e-03 -245.790e-03 +236.865e-03 +54.4999e-03
5.311123e+09 +251.650e-03 +3.62036e-03 +41.0297e-03 -226.118e-03 +40.4539e-03 -226.620e-03 +220.164e-03 +88.9338e-03
5.385872e+09 +254.434e-03 +39.6489e-03 +25.7731e-03 -206.434e-03 +25.5065e-03 -208.105e-03 +222.763e-03 +121.259e-03
5.460620e+09 +265.789e-03 +68.3711e-03 +15.6798e-03 -188.135e-03 +14.6850e-03 -187.888e-03 +217.235e-03 +162.864e-03
5.535369e+09 +285.852e-03 +95.0478e-03 +10.1691e-03 -171.860e-03 +7.97279e-03 -170.541e-03 +224.756e-03 +198.744e-03
5.610117e+09 +292.429e-03 +124.159e-03 +4.88340e-03 -155.133e-03 +3.24572e-03 -152.926e-03 +236.487e-03 +233.245e-03
5.684865e+09 +321.796e-03 +146.250e-03 -464.053e-06 -139.923e-03 +513.261e-06 -138.031e-03 +255.211e-03 +266.135e-03
5.759614e+09 +342.940e-03 +169.900e-03 -1.23886e-03 -128.031e-03 -2.44624e-03 -126.787e-03 +273.277e-03 +297.793e-03
5.834362e+09 +364.603e-03 +184.290e-03 -4.82435e-03 -113.776e-03 -4.33224e-03 -113.496e-03 +294.357e-03 +318.806e-03
5.909110e+09 +389.850e-03 +199.182e-03 -5.48142e-03 -103.301e-03 -6.17185e-03 -101.771e-03 +314.721e-03 +348.879e-03
5.983859e+09 +409.645e-03 +206.804e-03 -5.53624e-03 -91.0966e-03 -5.97323e-03 -89.2388e-03 +339.222e-03 +373.632e-03
6.058607e+09 +431.608e-03 +209.650e-03 -6.98420e-03 -78.6185e-03 -7.49991e-03 -76.2032e-03 +368.915e-03 +391.124e-03
6.133355e+09 +446.839e-03 +209.611e-03 -2.96551e-03 -64.9535e-03 -3.06684e-03 -64.1412e-03 +394.544e-03 +409.714e-03
6.220996e+09 +462.625e-03 +201.643e-03 -189.516e-06 -53.7786e-03 -1.31235e-03 -53.5623e-03 +425.873e-03 +414.803e-03
6.324587e+09 +466.174e-03 +182.230e-03 +4.28749e-03 -40.2697e-03 +3.40287e-03 -39.8021e-03 +455.071e-03 +413.747e-03
6.428178e+09 +450.453e-03 +155.605e-03 +9.19847e-03 -25.1960e-03 +8.89453e-03 -25.1845e-03 +481.916e-03 +406.333e-03
6.531769e+09 +417.771e-03 +136.229e-03 +18.7113e-03 -12.9925e-03 +19.1296e-03 -12.4354e-03 +505.052e-03 +390.137e-03
6.635360e+09 +369.887e-03 +127.074e-03 +30.2632e-03 -1.07688e-03 +29.9620e-03 -1.09599e-03 +516.115e-03 +368.190e-03
6.738951e+09 +308.307e-03 +134.296e-03 +45.8614e-03 +9.93811e-03 +45.8392e-03 +10.3988e-03 +525.413e-03 +351.648e-03
6.842542e+09 +253.420e-03 +177.299e-03 +67.4408e-03 +12.8632e-03 +68.2532e-03 +12.0089e-03 +523.044e-03 +324.429e-03
6.946133e+09 +215.512e-03 +254.590e-03 +85.0770e-03 +7.25077e-03 +86.8206e-03 +6.51272e-03 +515.958e-03 +304.677e-03
7.049725e+09 +232.818e-03 +344.848e-03 +104.513e-03 -6.68220e-03 +103.248e-03 -6.19083e-03 +511.790e-03 +277.382e-03
7.153316e+09 +305.514e-03 +401.472e-03 +113.173e-03 -28.5396e-03 +114.788e-03 -28.0667e-03 +503.209e-03 +253.321e-03
7.256907e+09 +387.058e-03 +400.549e-03 +103.421e-03 -48.5847e-03 +103.651e-03 -47.5649e-03 +479.158e-03 +248.040e-03
7.360498e+09 +428.651e-03 +373.959e-03 +97.8666e-03 -52.0624e-03 +95.6879e-03 -50.2715e-03 +471.820e-03 +256.673e-03
7.464089e+09 +477.353e-03 +378.137e-03 +89.5415e-03 -65.4974e-03 +90.4912e-03 -64.5894e-03 +467.997e-03 +276.191e-03
7.567680e+09 +550.057e-03 +346.306e-03 +71.9837e-03 -69.5658e-03 +73.7659e-03 -67.5927e-03 +506.673e-03 +306.799e-03
7.671271e+09 +596.312e-03 +287.333e-03 +61.3443e-03 -61.8323e-03 +59.7061e-03 -60.6246e-03 +558.691e-03 +319.049e-03
7.774862e+09 +629.534e-03 +225.859e-03 +57.0553e-03 -52.7202e-03 +55.8470e-03 -53.6979e-03 +624.750e-03 +291.602e-03
7.878453e+09 +652.056e-03 +167.290e-03 +53.0507e-03 -47.8844e-03 +53.0092e-03 -48.7044e-03 +667.814e-03 +242.551e-03
7.982044e+09 +661.594e-03 +125.654e-03 +51.4232e-03 -42.4881e-03 +52.1453e-03 -42.7559e-03 +692.672e-03 +213.824e-03
